Freq.	V(vout)
1.00000000000000e-001	(2.84008783609325e+000dB,-3.35951383477302e-002°)
1.00230523807790e-001	(2.84008783200178e+000dB,-3.36725833193189e-002°)
1.00461579027840e-001	(2.84008782789144e+000dB,-3.37502068212485e-002°)
1.00693166885180e-001	(2.84008782376211e+000dB,-3.38280092650831e-002°)
1.00925288607668e-001	(2.84008781961371e+000dB,-3.39059910633352e-002°)
1.01157945425990e-001	(2.84008781544619e+000dB,-3.39841526294676e-002°)
1.01391138573668e-001	(2.84008781125943e+000dB,-3.40624943778971e-002°)
1.01624869287070e-001	(2.84008780705332e+000dB,-3.41410167239959e-002°)
1.01859138805412e-001	(2.84008780282781e+000dB,-3.42197200840932e-002°)
1.02093948370768e-001	(2.84008779858279e+000dB,-3.42986048754784e-002°)
1.02329299228075e-001	(2.84008779431818e+000dB,-3.43776715164031e-002°)
1.02565192625141e-001	(2.84008779003388e+000dB,-3.44569204260827e-002°)
1.02801629812647e-001	(2.84008778572981e+000dB,-3.45363520246991e-002°)
1.03038612044162e-001	(2.84008778140587e+000dB,-3.46159667334035e-002°)
1.03276140576140e-001	(2.84008777706199e+000dB,-3.46957649743170e-002°)
1.03514216667934e-001	(2.84008777269804e+000dB,-3.47757471705351e-002°)
1.03752841581801e-001	(2.84008776831395e+000dB,-3.48559137461272e-002°)
1.03992016582906e-001	(2.84008776390963e+000dB,-3.49362651261415e-002°)
1.04231742939330e-001	(2.84008775948497e+000dB,-3.50168017366059e-002°)
1.04472021922080e-001	(2.84008775503989e+000dB,-3.50975240045301e-002°)
1.04712854805090e-001	(2.84008775057431e+000dB,-3.51784323579085e-002°)
1.04954242865232e-001	(2.84008774608809e+000dB,-3.52595272257225e-002°)
1.05196187382322e-001	(2.84008774158118e+000dB,-3.53408090379415e-002°)
1.05438689639126e-001	(2.84008773705345e+000dB,-3.54222782255272e-002°)
1.05681750921366e-001	(2.84008773250483e+000dB,-3.55039352204342e-002°)
1.05925372517729e-001	(2.84008772793522e+000dB,-3.55857804556132e-002°)
1.06169555719872e-001	(2.84008772334451e+000dB,-3.56678143650128e-002°)
1.06414301822431e-001	(2.84008771873262e+000dB,-3.57500373835823e-002°)
1.06659612123026e-001	(2.84008771409943e+000dB,-3.58324499472735e-002°)
1.06905487922266e-001	(2.84008770944487e+000dB,-3.59150524930435e-002°)
1.07151930523760e-001	(2.84008770476882e+000dB,-3.59978454588565e-002°)
1.07398941234124e-001	(2.84008770007118e+000dB,-3.60808292836865e-002°)
1.07646521362983e-001	(2.84008769535186e+000dB,-3.61640044075200e-002°)
1.07894672222983e-001	(2.84008769061075e+000dB,-3.62473712713566e-002°)
1.08143395129794e-001	(2.84008768584776e+000dB,-3.63309303172135e-002°)
1.08392691402120e-001	(2.84008768106278e+000dB,-3.64146819881270e-002°)
1.08642562361706e-001	(2.84008767625572e+000dB,-3.64986267281546e-002°)
1.08893009333343e-001	(2.84008767142648e+000dB,-3.65827649823774e-002°)
1.09144033644875e-001	(2.84008766657492e+000dB,-3.66670971969028e-002°)
1.09395636627209e-001	(2.84008766170099e+000dB,-3.67516238188659e-002°)
1.09647819614318e-001	(2.84008765680457e+000dB,-3.68363452964337e-002°)
1.09900583943252e-001	(2.84008765188554e+000dB,-3.69212620788061e-002°)
1.10153930954141e-001	(2.84008764694380e+000dB,-3.70063746162186e-002°)
1.10407861990207e-001	(2.84008764197924e+000dB,-3.70916833599440e-002°)
1.10662378397766e-001	(2.84008763699178e+000dB,-3.71771887622961e-002°)
1.10917481526240e-001	(2.84008763198130e+000dB,-3.72628912766320e-002°)
1.11173172728159e-001	(2.84008762694770e+000dB,-3.73487913573522e-002°)
1.11429453359173e-001	(2.84008762189085e+000dB,-3.74348894599072e-002°)
1.11686324778056e-001	(2.84008761681064e+000dB,-3.75211860407956e-002°)
1.11943788346715e-001	(2.84008761170702e+000dB,-3.76076815575689e-002°)
1.12201845430196e-001	(2.84008760657981e+000dB,-3.76943764688344e-002°)
1.12460497396692e-001	(2.84008760142896e+000dB,-3.77812712342548e-002°)
1.12719745617551e-001	(2.84008759625432e+000dB,-3.78683663145542e-002°)
1.12979591467279e-001	(2.84008759105580e+000dB,-3.79556621715185e-002°)
1.13240036323555e-001	(2.84008758583330e+000dB,-3.80431592679972e-002°)
1.13501081567231e-001	(2.84008758058666e+000dB,-3.81308580679086e-002°)
1.13762728582343e-001	(2.84008757531582e+000dB,-3.82187590362389e-002°)
1.14024978756117e-001	(2.84008757002065e+000dB,-3.83068626390472e-002°)
1.14287833478977e-001	(2.84008756470103e+000dB,-3.83951693434666e-002°)
1.14551294144553e-001	(2.84008755935687e+000dB,-3.84836796177079e-002°)
1.14815362149688e-001	(2.84008755398804e+000dB,-3.85723939310599e-002°)
1.15080038894443e-001	(2.84008754859442e+000dB,-3.86613127538948e-002°)
1.15345325782109e-001	(2.84008754317591e+000dB,-3.87504365576689e-002°)
1.15611224219209e-001	(2.84008753773238e+000dB,-3.88397658149242e-002°)
1.15877735615512e-001	(2.84008753226374e+000dB,-3.89293009992940e-002°)
1.16144861384034e-001	(2.84008752676984e+000dB,-3.90190425855019e-002°)
1.16412602941049e-001	(2.84008752125059e+000dB,-3.91089910493672e-002°)
1.16680961706096e-001	(2.84008751570587e+000dB,-3.91991468678046e-002°)
1.16949939101987e-001	(2.84008751013555e+000dB,-3.92895105188301e-002°)
1.17219536554813e-001	(2.84008750453951e+000dB,-3.93800824815606e-002°)
1.17489755493952e-001	(2.84008749891766e+000dB,-3.94708632362180e-002°)
1.17760597352080e-001	(2.84008749326984e+000dB,-3.95618532641309e-002°)
1.18032063565172e-001	(2.84008748759595e+000dB,-3.96530530477386e-002°)
1.18304155572516e-001	(2.84008748189589e+000dB,-3.97444630705911e-002°)
1.18576874816716e-001	(2.84008747616951e+000dB,-3.98360838173541e-002°)
1.18850222743701e-001	(2.84008747041670e+000dB,-3.99279157738103e-002°)
1.19124200802737e-001	(2.84008746463733e+000dB,-4.00199594268635e-002°)
1.19398810446427e-001	(2.84008745883128e+000dB,-4.01122152645389e-002°)
1.19674053130724e-001	(2.84008745299844e+000dB,-4.02046837759869e-002°)
1.19949930314937e-001	(2.84008744713868e+000dB,-4.02973654514848e-002°)
1.20226443461741e-001	(2.84008744125186e+000dB,-4.03902607824426e-002°)
1.20503594037179e-001	(2.84008743533788e+000dB,-4.04833702614009e-002°)
1.20781383510677e-001	(2.84008742939660e+000dB,-4.05766943820371e-002°)
1.21059813355048e-001	(2.84008742342788e+000dB,-4.06702336391665e-002°)
1.21338885046497e-001	(2.84008741743162e+000dB,-4.07639885287444e-002°)
1.21618600064636e-001	(2.84008741140769e+000dB,-4.08579595478710e-002°)
1.21898959892486e-001	(2.84008740535595e+000dB,-4.09521471947904e-002°)
1.22179966016487e-001	(2.84008739927626e+000dB,-4.10465519688982e-002°)
1.22461619926504e-001	(2.84008739316853e+000dB,-4.11411743707382e-002°)
1.22743923115840e-001	(2.84008738703260e+000dB,-4.12360149020111e-002°)
1.23026877081238e-001	(2.84008738086834e+000dB,-4.13310740655720e-002°)
1.23310483322890e-001	(2.84008737467563e+000dB,-4.14263523654368e-002°)
1.23594743344450e-001	(2.84008736845435e+000dB,-4.15218503067822e-002°)
1.23879658653036e-001	(2.84008736220434e+000dB,-4.16175683959507e-002°)
1.24165230759240e-001	(2.84008735592548e+000dB,-4.17135071404510e-002°)
1.24451461177138e-001	(2.84008734961766e+000dB,-4.18096670489633e-002°)
1.24738351424294e-001	(2.84008734328068e+000dB,-4.19060486313389e-002°)
1.25025903021771e-001	(2.84008733691448e+000dB,-4.20026523986061e-002°)
1.25314117494141e-001	(2.84008733051889e+000dB,-4.20994788629697e-002°)
1.25602996369487e-001	(2.84008732409377e+000dB,-4.21965285378171e-002°)
1.25892541179416e-001	(2.84008731763902e+000dB,-4.22938019377178e-002°)
1.26182753459066e-001	(2.84008731115445e+000dB,-4.23912995784282e-002°)
1.26473634747114e-001	(2.84008730463995e+000dB,-4.24890219768951e-002°)
1.26765186585784e-001	(2.84008729809539e+000dB,-4.25869696512543e-002°)
1.27057410520853e-001	(2.84008729152061e+000dB,-4.26851431208386e-002°)
1.27350308101665e-001	(2.84008728491549e+000dB,-4.27835429061768e-002°)
1.27643880881134e-001	(2.84008727827989e+000dB,-4.28821695289980e-002°)
1.27938130415752e-001	(2.84008727161365e+000dB,-4.29810235122350e-002°)
1.28233058265601e-001	(2.84008726491663e+000dB,-4.30801053800246e-002°)
1.28528665994361e-001	(2.84008725818872e+000dB,-4.31794156577135e-002°)
1.28824955169313e-001	(2.84008725142975e+000dB,-4.32789548718589e-002°)
1.29121927361353e-001	(2.84008724463956e+000dB,-4.33787235502317e-002°)
1.29419584144998e-001	(2.84008723781805e+000dB,-4.34787222218206e-002°)
1.29717927098395e-001	(2.84008723096505e+000dB,-4.35789514168319e-002°)
1.30016957803328e-001	(2.84008722408041e+000dB,-4.36794116666967e-002°)
1.30316677845229e-001	(2.84008721716399e+000dB,-4.37801035040696e-002°)
1.30617088813183e-001	(2.84008721021566e+000dB,-4.38810274628341e-002°)
1.30918192299940e-001	(2.84008720323525e+000dB,-4.39821840781034e-002°)
1.31219989901919e-001	(2.84008719622260e+000dB,-4.40835738862263e-002°)
1.31522483219223e-001	(2.84008718917761e+000dB,-4.41851974247860e-002°)
1.31825673855640e-001	(2.84008718210010e+000dB,-4.42870552326072e-002°)
1.32129563418657e-001	(2.84008717498991e+000dB,-4.43891478497554e-002°)
1.32434153519466e-001	(2.84008716784690e+000dB,-4.44914758175418e-002°)
1.32739445772973e-001	(2.84008716067092e+000dB,-4.45940396785240e-002°)
1.33045441797808e-001	(2.84008715346181e+000dB,-4.46968399765141e-002°)
1.33352143216331e-001	(2.84008714621943e+000dB,-4.47998772565736e-002°)
1.33659551654643e-001	(2.84008713894363e+000dB,-4.49031520650244e-002°)
1.33967668742593e-001	(2.84008713163424e+000dB,-4.50066649494453e-002°)
1.34276496113785e-001	(2.84008712429110e+000dB,-4.51104164586792e-002°)
1.34586035405594e-001	(2.84008711691408e+000dB,-4.52144071428331e-002°)
1.34896288259164e-001	(2.84008710950300e+000dB,-4.53186375532833e-002°)
1.35207256319427e-001	(2.84008710205772e+000dB,-4.54231082426771e-002°)
1.35518941235103e-001	(2.84008709457807e+000dB,-4.55278197649349e-002°)
1.35831344658714e-001	(2.84008708706390e+000dB,-4.56327726752551e-002°)
1.36144468246594e-001	(2.84008707951503e+000dB,-4.57379675301173e-002°)
1.36458313658891e-001	(2.84008707193133e+000dB,-4.58434048872802e-002°)
1.36772882559584e-001	(2.84008706431262e+000dB,-4.59490853057934e-002°)
1.37088176616484e-001	(2.84008705665875e+000dB,-4.60550093459911e-002°)
1.37404197501250e-001	(2.84008704896954e+000dB,-4.61611775695027e-002°)
1.37720946889394e-001	(2.84008704124484e+000dB,-4.62675905392500e-002°)
1.38038426460287e-001	(2.84008703348449e+000dB,-4.63742488194537e-002°)
1.38356637897177e-001	(2.84008702568832e+000dB,-4.64811529756353e-002°)
1.38675582887188e-001	(2.84008701785615e+000dB,-4.65883035746204e-002°)
1.38995263121334e-001	(2.84008700998783e+000dB,-4.66957011845405e-002°)
1.39315680294529e-001	(2.84008700208321e+000dB,-4.68033463748370e-002°)
1.39636836105593e-001	(2.84008699414208e+000dB,-4.69112397162656e-002°)
1.39958732257261e-001	(2.84008698616432e+000dB,-4.70193817808957e-002°)
1.40281370456195e-001	(2.84008697814972e+000dB,-4.71277731421181e-002°)
1.40604752412990e-001	(2.84008697009812e+000dB,-4.72364143746441e-002°)
1.40928879842186e-001	(2.84008696200938e+000dB,-4.73453060545090e-002°)
1.41253754462274e-001	(2.84008695388328e+000dB,-4.74544487590784e-002°)
1.41579377995707e-001	(2.84008694571968e+000dB,-4.75638430670474e-002°)
1.41905752168908e-001	(2.84008693751840e+000dB,-4.76734895584468e-002°)
1.42232878712281e-001	(2.84008692927926e+000dB,-4.77833888146426e-002°)
1.42560759360218e-001	(2.84008692100208e+000dB,-4.78935414183433e-002°)
1.42889395851109e-001	(2.84008691268671e+000dB,-4.80039479535987e-002°)
1.43218789927353e-001	(2.84008690433295e+000dB,-4.81146090058075e-002°)
1.43548943335364e-001	(2.84008689594063e+000dB,-4.82255251617164e-002°)
1.43879857825583e-001	(2.84008688750958e+000dB,-4.83366970094250e-002°)
1.44211535152486e-001	(2.84008687903960e+000dB,-4.84481251383892e-002°)
1.44543977074591e-001	(2.84008687053054e+000dB,-4.85598101394239e-002°)
1.44877185354475e-001	(2.84008686198219e+000dB,-4.86717526047065e-002°)
1.45211161758773e-001	(2.84008685339439e+000dB,-4.87839531277782e-002°)
1.45545908058195e-001	(2.84008684476695e+000dB,-4.88964123035503e-002°)
1.45881426027534e-001	(2.84008683609968e+000dB,-4.90091307283059e-002°)
1.46217717445671e-001	(2.84008682739242e+000dB,-4.91221089997004e-002°)
1.46554784095590e-001	(2.84008681864495e+000dB,-4.92353477167703e-002°)
1.46892627764385e-001	(2.84008680985711e+000dB,-4.93488474799308e-002°)
1.47231250243271e-001	(2.84008680102870e+000dB,-4.94626088909815e-002°)
1.47570653327588e-001	(2.84008679215955e+000dB,-4.95766325531118e-002°)
1.47910838816819e-001	(2.84008678324946e+000dB,-4.96909190708997e-002°)
1.48251808514594e-001	(2.84008677429824e+000dB,-4.98054690503172e-002°)
1.48593564228699e-001	(2.84008676530569e+000dB,-4.99202830987338e-002°)
1.48936107771090e-001	(2.84008675627165e+000dB,-5.00353618249194e-002°)
1.49279440957898e-001	(2.84008674719591e+000dB,-5.01507058390479e-002°)
1.49623565609442e-001	(2.84008673807827e+000dB,-5.02663157526985e-002°)
1.49968483550236e-001	(2.84008672891854e+000dB,-5.03821921788621e-002°)
1.50314196609001e-001	(2.84008671971654e+000dB,-5.04983357319419e-002°)
1.50660706618673e-001	(2.84008671047205e+000dB,-5.06147470277581e-002°)
1.51008015416413e-001	(2.84008670118491e+000dB,-5.07314266835498e-002°)
1.51356124843619e-001	(2.84008669185489e+000dB,-5.08483753179810e-002°)
1.51705036745932e-001	(2.84008668248180e+000dB,-5.09655935511408e-002°)
1.52054752973248e-001	(2.84008667306545e+000dB,-5.10830820045475e-002°)
1.52405275379728e-001	(2.84008666360564e+000dB,-5.12008413011534e-002°)
1.52756605823806e-001	(2.84008665410216e+000dB,-5.13188720653466e-002°)
1.53108746168202e-001	(2.84008664455482e+000dB,-5.14371749229551e-002°)
1.53461698279928e-001	(2.84008663496340e+000dB,-5.15557505012487e-002°)
1.53815464030302e-001	(2.84008662532771e+000dB,-5.16745994289451e-002°)
1.54170045294954e-001	(2.84008661564755e+000dB,-5.17937223362100e-002°)
1.54525443953840e-001	(2.84008660592270e+000dB,-5.19131198546641e-002°)
1.54881661891247e-001	(2.84008659615297e+000dB,-5.20327926173807e-002°)
1.55238700995807e-001	(2.84008658633814e+000dB,-5.21527412588970e-002°)
1.55596563160506e-001	(2.84008657647800e+000dB,-5.22729664152101e-002°)
1.55955250282694e-001	(2.84008656657235e+000dB,-5.23934687237850e-002°)
1.56314764264094e-001	(2.84008655662098e+000dB,-5.25142488235548e-002°)
1.56675107010813e-001	(2.84008654662367e+000dB,-5.26353073549284e-002°)
1.57036280433354e-001	(2.84008653658022e+000dB,-5.27566449597885e-002°)
1.57398286446620e-001	(2.84008652649040e+000dB,-5.28782622814991e-002°)
1.57761126969933e-001	(2.84008651635403e+000dB,-5.30001599649073e-002°)
1.58124803927037e-001	(2.84008650617087e+000dB,-5.31223386563472e-002°)
1.58489319246110e-001	(2.84008649594068e+000dB,-5.32447990036430e-002°)
1.58854674859776e-001	(2.84008648566328e+000dB,-5.33675416561118e-002°)
1.59220872705115e-001	(2.84008647533846e+000dB,-5.34905672645680e-002°)
1.59587914723672e-001	(2.84008646496594e+000dB,-5.36138764813279e-002°)
1.59955802861465e-001	(2.84008645454558e+000dB,-5.37374699602105e-002°)
1.60324539069002e-001	(2.84008644407711e+000dB,-5.38613483565419e-002°)
1.60694125301286e-001	(2.84008643356031e+000dB,-5.39855123271602e-002°)
1.61064563517825e-001	(2.84008642299497e+000dB,-5.41099625304169e-002°)
1.61435855682647e-001	(2.84008641238088e+000dB,-5.42346996261817e-002°)
1.61808003764305e-001	(2.84008640171779e+000dB,-5.43597242758471e-002°)
1.62181009735891e-001	(2.84008639100547e+000dB,-5.44850371423284e-002°)
1.62554875575047e-001	(2.84008638024370e+000dB,-5.46106388900707e-002°)
1.62929603263970e-001	(2.84008636943226e+000dB,-5.47365301850504e-002°)
1.63305194789432e-001	(2.84008635857092e+000dB,-5.48627116947792e-002°)
1.63681652142779e-001	(2.84008634765945e+000dB,-5.49891840883086e-002°)
1.64058977319952e-001	(2.84008633669761e+000dB,-5.51159480362329e-002°)
1.64437172321491e-001	(2.84008632568516e+000dB,-5.52430042106911e-002°)
1.64816239152549e-001	(2.84008631462189e+000dB,-5.53703532853729e-002°)
1.65196179822900e-001	(2.84008630350754e+000dB,-5.54979959355212e-002°)
1.65576996346951e-001	(2.84008629234190e+000dB,-5.56259328379361e-002°)
1.65958690743754e-001	(2.84008628112472e+000dB,-5.57541646709763e-002°)
1.66341265037015e-001	(2.84008626985577e+000dB,-5.58826921145679e-002°)
1.66724721255104e-001	(2.84008625853479e+000dB,-5.60115158502016e-002°)
1.67109061431069e-001	(2.84008624716156e+000dB,-5.61406365609411e-002°)
1.67494287602642e-001	(2.84008623573584e+000dB,-5.62700549314235e-002°)
1.67880401812254e-001	(2.84008622425736e+000dB,-5.63997716478658e-002°)
1.68267406107045e-001	(2.84008621272591e+000dB,-5.65297873980674e-002°)
1.68655302538872e-001	(2.84008620114124e+000dB,-5.66601028714118e-002°)
1.69044093164324e-001	(2.84008618950309e+000dB,-5.67907187588735e-002°)
1.69433780044731e-001	(2.84008617781122e+000dB,-5.69216357530191e-002°)
1.69824365246172e-001	(2.84008616606538e+000dB,-5.70528545480133e-002°)
1.70215850839493e-001	(2.84008615426532e+000dB,-5.71843758396206e-002°)
1.70608238900310e-001	(2.84008614241080e+000dB,-5.73162003252090e-002°)
1.71001531509027e-001	(2.84008613050155e+000dB,-5.74483287037554e-002°)
1.71395730750840e-001	(2.84008611853734e+000dB,-5.75807616758477e-002°)
1.71790838715757e-001	(2.84008610651790e+000dB,-5.77134999436900e-002°)
1.72186857498599e-001	(2.84008609444298e+000dB,-5.78465442111038e-002°)
1.72583789199018e-001	(2.84008608231232e+000dB,-5.79798951835353e-002°)
1.72981635921508e-001	(2.84008607012567e+000dB,-5.81135535680556e-002°)
1.73380399775412e-001	(2.84008605788278e+000dB,-5.82475200733670e-002°)
1.73780082874935e-001	(2.84008604558335e+000dB,-5.83817954098060e-002°)
1.74180687339159e-001	(2.84008603322716e+000dB,-5.85163802893463e-002°)
1.74582215292048e-001	(2.84008602081395e+000dB,-5.86512754256027e-002°)
1.74984668862463e-001	(2.84008600834343e+000dB,-5.87864815338366e-002°)
1.75388050184174e-001	(2.84008599581533e+000dB,-5.89219993309592e-002°)
1.75792361395867e-001	(2.84008598322943e+000dB,-5.90578295355312e-002°)
1.76197604641161e-001	(2.84008597058543e+000dB,-5.91939728677735e-002°)
1.76603782068614e-001	(2.84008595788306e+000dB,-5.93304300495665e-002°)
1.77010895831740e-001	(2.84008594512206e+000dB,-5.94672018044547e-002°)
1.77418948089014e-001	(2.84008593230216e+000dB,-5.96042888576513e-002°)
1.77827941003890e-001	(2.84008591942308e+000dB,-5.97416919360412e-002°)
1.78237876744807e-001	(2.84008590648456e+000dB,-5.98794117681864e-002°)
1.78648757485203e-001	(2.84008589348631e+000dB,-6.00174490843267e-002°)
1.79060585403527e-001	(2.84008588042805e+000dB,-6.01558046163875e-002°)
1.79473362683250e-001	(2.84008586730954e+000dB,-6.02944790979807e-002°)
1.79887091512876e-001	(2.84008585413046e+000dB,-6.04334732644106e-002°)
1.80301774085954e-001	(2.84008584089054e+000dB,-6.05727878526762e-002°)
1.80717412601090e-001	(2.84008582758953e+000dB,-6.07124236014751e-002°)
1.81134009261958e-001	(2.84008581422711e+000dB,-6.08523812512097e-002°)
1.81551566277311e-001	(2.84008580080301e+000dB,-6.09926615439892e-002°)
1.81970085860996e-001	(2.84008578731695e+000dB,-6.11332652236332e-002°)
1.82389570231961e-001	(2.84008577376862e+000dB,-6.12741930356762e-002°)
1.82810021614272e-001	(2.84008576015778e+000dB,-6.14154457273724e-002°)
1.83231442237119e-001	(2.84008574648411e+000dB,-6.15570240476988e-002°)
1.83653834334832e-001	(2.84008573274732e+000dB,-6.16989287473592e-002°)
1.84077200146893e-001	(2.84008571894712e+000dB,-6.18411605787885e-002°)
1.84501541917945e-001	(2.84008570508322e+000dB,-6.19837202961558e-002°)
1.84926861897805e-001	(2.84008569115532e+000dB,-6.21266086553707e-002°)
1.85353162341479e-001	(2.84008567716314e+000dB,-6.22698264140836e-002°)
1.85780445509167e-001	(2.84008566310637e+000dB,-6.24133743316939e-002°)
1.86208713666284e-001	(2.84008564898472e+000dB,-6.25572531693502e-002°)
1.86637969083464e-001	(2.84008563479788e+000dB,-6.27014636899570e-002°)
1.87068214036577e-001	(2.84008562054555e+000dB,-6.28460066581773e-002°)
